T4118 000:014.331   SEGGER J-Link V7.56b Log File
T4118 000:014.558   DLL Compiled: Oct 18 2021 16:30:47
T4118 000:014.568   Logging started @ 2021-11-14 04:28
T4118 000:014.576 - 14.580ms
T4118 000:014.591 JLINK_SetWarnOutHandler(...)
T4118 000:014.601 - 0.014ms
T4118 000:014.612 JLINK_OpenEx(...)
T4118 000:016.503   Firmware: J-Link V9 compiled May  7 2021 16:26:12
T4118 000:016.932   Firmware: J-Link V9 compiled May  7 2021 16:26:12
T4118 000:017.243   Decompressing FW timestamp took 268 us
T4118 000:023.556   Hardware: V9.60
T4118 000:023.593   S/N: 59600161
T4118 000:023.605   OEM: SEGGER
T4118 000:023.617   Feature(s): RDI, GDB, FlashDL, FlashBP, JFlash
T4118 000:024.657   TELNET listener socket opened on port 19021
T4118 000:024.800   WEBSRV WEBSRV_Init(): Starting webserver thread(s)
T4118 000:025.061   WEBSRV Webserver running on local port 19080
T4118 000:046.244 - 31.653ms returns "O.K."
T4118 000:046.293 JLINK_GetEmuCaps()
T4118 000:046.302 - 0.013ms returns 0xB9FF7BBF
T4118 000:046.324 JLINK_TIF_GetAvailable(...)
T4118 000:046.549 - 0.246ms
T4118 000:046.583 JLINK_SetErrorOutHandler(...)
T4118 000:046.591 - 0.012ms
T4118 000:046.617 JLINK_ExecCommand("ProjectFile = "F:\Embedded\STM32\STM32\STM32F407\VET6_Project\IAP_Demo\APP_Project\MDK-ARM\JLinkSettings.ini"", ...). 
T4118 000:061.841   Ref file found at: D:\Keil5\keil5forSTM32\ARM\Segger\JLinkDevices.ref
T4118 000:062.008   XML referenced by ref file: D:\Keil5\JLink_Driver\JLinkDevices.xml
T4118 000:063.093   D:\Keil5\JLink_Driver\JLinkDevices.xml evaluated successfully.
T4118 000:076.857 - 30.255ms returns 0x00
T4118 000:076.950 JLINK_ExecCommand("Device = STM32F407VETx", ...). 
T4118 000:077.553   Device "STM32F407VE" selected.
T4118 000:077.908 - 0.948ms returns 0x00
T4118 000:077.928 JLINK_ExecCommand("DisableConnectionTimeout", ...). 
T4118 000:077.943 - 0.006ms returns 0x01
T4118 000:077.955 JLINK_GetHardwareVersion()
T4118 000:077.963 - 0.012ms returns 96000
T4118 000:077.974 JLINK_GetDLLVersion()
T4118 000:077.981 - 0.011ms returns 75602
T4118 000:077.992 JLINK_GetOEMString(...)
T4118 000:078.003 JLINK_GetFirmwareString(...)
T4118 000:078.011 - 0.011ms
T4118 000:078.048 JLINK_GetDLLVersion()
T4118 000:078.057 - 0.012ms returns 75602
T4118 000:078.068 JLINK_GetCompileDateTime()
T4118 000:078.075 - 0.011ms
T4118 000:078.095 JLINK_GetFirmwareString(...)
T4118 000:078.103 - 0.012ms
T4118 000:078.120 JLINK_GetHardwareVersion()
T4118 000:078.128 - 0.011ms returns 96000
T4118 000:078.145 JLINK_GetSN()
T4118 000:078.154 - 0.012ms returns 59600161
T4118 000:078.170 JLINK_GetOEMString(...)
T4118 000:078.194 JLINK_TIF_Select(JLINKARM_TIF_SWD)
T4118 000:078.856 - 0.673ms returns 0x00
T4118 000:078.878 JLINK_HasError()
T4118 000:078.901 JLINK_SetSpeed(2000)
T4118 000:079.003 - 0.111ms
T4118 000:079.023 JLINK_GetId()
T4118 000:079.223   InitTarget() start
T4118 000:079.241    J-Link Script File: Executing InitTarget()
T4118 000:085.614   InitTarget() end
T4118 000:086.227   Found SW-DP with ID 0x2BA01477
T4118 000:088.416   DPIDR: 0x2BA01477
T4118 000:088.441   Scanning AP map to find all available APs
T4118 000:089.040   AP[1]: Stopped AP scan as end of AP map has been reached
T4118 000:089.081   AP[0]: AHB-AP (IDR: 0x24770011)
T4118 000:089.100   Iterating through AP map to find AHB-AP to use
T4118 000:089.967   AP[0]: Core found
T4118 000:089.995   AP[0]: AHB-AP ROM base: 0xE00FF000
T4118 000:090.424   CPUID register: 0x410FC241. Implementer code: 0x41 (ARM)
T4118 000:090.452   Found Cortex-M4 r0p1, Little endian.
T4118 000:191.840   -- Max. mem block: 0x00010C20
T4118 000:192.017   CPU_ReadMem(4 bytes @ 0xE000EDF0)
T4118 000:192.369   CPU_ReadMem(4 bytes @ 0xE0002000)
T4118 000:192.767   FPUnit: 6 code (BP) slots and 2 literal slots
T4118 000:192.785   CPU_ReadMem(4 bytes @ 0xE000EDFC)
T4118 000:193.131   CPU_WriteMem(4 bytes @ 0xE000EDFC)
T4118 000:193.515   CPU_ReadMem(4 bytes @ 0xE0001000)
T4118 000:193.865   CPU_WriteMem(4 bytes @ 0xE0001000)
T4118 000:194.231   CPU_ReadMem(4 bytes @ 0xE000ED88)
T4118 000:194.687   CPU_WriteMem(4 bytes @ 0xE000ED88)
T4118 000:195.047   CPU_ReadMem(4 bytes @ 0xE000ED88)
T4118 000:195.403   CPU_WriteMem(4 bytes @ 0xE000ED88)
T4118 000:195.790   CoreSight components:
T4118 000:195.814   ROMTbl[0] @ E00FF000
T4118 000:195.828   CPU_ReadMem(64 bytes @ 0xE00FF000)
T4118 000:196.685   CPU_ReadMem(32 bytes @ 0xE000EFE0)
T4118 000:197.245   [0][0]: E000E000 CID B105E00D PID 000BB00C SCS-M7
T4118 000:197.264   CPU_ReadMem(32 bytes @ 0xE0001FE0)
T4118 000:197.884   [0][1]: E0001000 CID B105E00D PID 003BB002 DWT
T4118 000:197.906   CPU_ReadMem(32 bytes @ 0xE0002FE0)
T4118 000:198.546   [0][2]: E0002000 CID B105E00D PID 002BB003 FPB
T4118 000:198.567   CPU_ReadMem(32 bytes @ 0xE0000FE0)
T4118 000:199.171   [0][3]: E0000000 CID B105E00D PID 003BB001 ITM
T4118 000:199.191   CPU_ReadMem(32 bytes @ 0xE0040FE0)
T4118 000:199.793   [0][4]: E0040000 CID B105900D PID 000BB9A1 TPIU
T4118 000:199.811   CPU_ReadMem(32 bytes @ 0xE0041FE0)
T4118 000:200.434   [0][5]: E0041000 CID B105900D PID 000BB925 ETM
T4118 000:200.773 - 121.762ms returns 0x2BA01477
T4118 000:200.804 JLINK_GetDLLVersion()
T4118 000:200.813 - 0.012ms returns 75602
T4118 000:200.827 JLINK_CORE_GetFound()
T4118 000:200.835 - 0.012ms returns 0xE0000FF
T4118 000:200.850 JLINK_GetDebugInfo(0x100 = JLINKARM_ROM_TABLE_ADDR_INDEX)
T4118 000:200.860   Value=0xE00FF000
T4118 000:200.871 - 0.025ms returns 0
T4118 000:200.987 JLINK_GetDebugInfo(0x100 = JLINKARM_ROM_TABLE_ADDR_INDEX)
T4118 000:201.004   Value=0xE00FF000
T4118 000:201.016 - 0.032ms returns 0
T4118 000:201.027 JLINK_GetDebugInfo(0x101 = JLINKARM_DEBUG_INFO_ETM_ADDR_INDEX)
T4118 000:201.036   Value=0xE0041000
T4118 000:201.047 - 0.023ms returns 0
T4118 000:201.062 JLINK_ReadMemEx(0xE0041FD0, 0x20 Bytes, Flags = 0x02000004)
T4118 000:201.093   CPU_ReadMem(32 bytes @ 0xE0041FD0)
T4118 000:201.741   Data:  04 00 00 00 00 00 00 00 00 00 00 00 00 00 00 00 ...
T4118 000:201.759 - 0.701ms returns 32 (0x20)
T4118 000:201.773 JLINK_GetDebugInfo(0x102 = JLINKARM_DEBUG_INFO_MTB_ADDR_INDEX)
T4118 000:201.782   Value=0x00000000
T4118 000:201.794 - 0.024ms returns 0
T4118 000:201.804 JLINK_GetDebugInfo(0x103 = JLINKARM_DEBUG_INFO_TPIU_ADDR_INDEX)
T4118 000:201.812   Value=0xE0040000
T4118 000:201.823 - 0.022ms returns 0
T4118 000:201.833 JLINK_GetDebugInfo(0x104 = JLINKARM_DEBUG_INFO_ITM_ADDR_INDEX)
T4118 000:201.841   Value=0xE0000000
T4118 000:201.852 - 0.022ms returns 0
T4118 000:201.862 JLINK_GetDebugInfo(0x105 = JLINKARM_DEBUG_INFO_DWT_ADDR_INDEX)
T4118 000:201.870   Value=0xE0001000
T4118 000:201.881 - 0.022ms returns 0
T4118 000:201.891 JLINK_GetDebugInfo(0x106 = JLINKARM_DEBUG_INFO_FPB_ADDR_INDEX)
T4118 000:201.899   Value=0xE0002000
T4118 000:201.910 - 0.022ms returns 0
T4118 000:201.920 JLINK_GetDebugInfo(0x107 = JLINKARM_DEBUG_INFO_NVIC_ADDR_INDEX)
T4118 000:201.928   Value=0xE000E000
T4118 000:201.939 - 0.022ms returns 0
T4118 000:201.949 JLINK_GetDebugInfo(0x10C = JLINKARM_DEBUG_INFO_DBG_ADDR_INDEX)
T4118 000:201.957   Value=0xE000EDF0
T4118 000:201.968 - 0.022ms returns 0
T4118 000:201.978 JLINK_GetDebugInfo(0x01 = Unknown)
T4118 000:201.986   Value=0x00000001
T4118 000:201.997 - 0.022ms returns 0
T4118 000:202.007 JLINK_ReadMemU32(0xE000ED00, 0x1 Items)
T4118 000:202.022   CPU_ReadMem(4 bytes @ 0xE000ED00)
T4118 000:202.495   Data:  41 C2 0F 41
T4118 000:202.514   Debug reg: CPUID
T4118 000:202.525 - 0.522ms returns 1 (0x1)
T4118 000:202.540 JLINK_GetDebugInfo(0x10F = JLINKARM_DEBUG_INFO_HAS_CORTEX_M_SECURITY_EXT_INDEX)
T4118 000:202.549   Value=0x00000000
T4118 000:202.560 - 0.024ms returns 0
T4118 000:202.571 JLINK_HasError()
T4118 000:202.582 JLINK_SetResetType(JLINKARM_CM3_RESET_TYPE_NORMAL)
T4118 000:202.590 - 0.012ms returns JLINKARM_CM3_RESET_TYPE_NORMAL
T4118 000:202.601 JLINK_Reset()
T4118 000:202.623   CPU is running
T4118 000:202.636   CPU_WriteMem(4 bytes @ 0xE000EDF0)
T4118 000:203.081   CPU is running
T4118 000:203.101   CPU_WriteMem(4 bytes @ 0xE000EDFC)
T4118 000:203.547   Reset: Halt core after reset via DEMCR.VC_CORERESET.
T4118 000:204.161   Reset: Reset device via AIRCR.SYSRESETREQ.
T4118 000:204.181   CPU is running
T4118 000:204.195   CPU_WriteMem(4 bytes @ 0xE000ED0C)
T4118 000:256.617   CPU_ReadMem(4 bytes @ 0xE000EDF0)
T4118 000:256.983   CPU_ReadMem(4 bytes @ 0xE000EDF0)
T4118 000:257.344   CPU is running
T4118 000:257.363   CPU_WriteMem(4 bytes @ 0xE000EDF0)
T4118 000:257.737   CPU is running
T4118 000:257.755   CPU_WriteMem(4 bytes @ 0xE000EDFC)
T4118 000:263.259   CPU_ReadMem(4 bytes @ 0xE000EDF0)
T4118 000:267.150   CPU_WriteMem(4 bytes @ 0xE0002000)
T4118 000:268.125   CPU_ReadMem(4 bytes @ 0xE000EDFC)
T4118 000:268.485   CPU_ReadMem(4 bytes @ 0xE0001000)
T4118 000:268.911 - 66.321ms
T4118 000:268.943 JLINK_HasError()
T4118 000:268.960 JLINK_ReadReg(R15 (PC))
T4118 000:268.974 - 0.018ms returns 0x08000288
T4118 000:268.989 JLINK_ReadReg(XPSR)
T4118 000:268.998 - 0.013ms returns 0x01000000
T4118 000:269.012 JLINK_Halt()
T4118 000:269.020 - 0.011ms returns 0x00
T4118 000:269.035 JLINK_ReadMemU32(0xE000EDF0, 0x1 Items)
T4118 000:269.049   CPU_ReadMem(4 bytes @ 0xE000EDF0)
T4118 000:269.533   Data:  03 00 03 00
T4118 000:269.552   Debug reg: DHCSR
T4118 000:269.564 - 0.533ms returns 1 (0x1)
T4118 000:269.588 JLINK_WriteU32_64(0xE000EDF0, 0xA05F0003)
T4118 000:269.598   Debug reg: DHCSR
T4118 000:269.982   CPU_WriteMem(4 bytes @ 0xE000EDF0)
T4118 000:270.414 - 0.836ms returns 0 (0x00000000)
T4118 000:270.441 JLINK_WriteU32_64(0xE000EDFC, 0x01000000)
T4118 000:270.451   Debug reg: DEMCR
T4118 000:270.470   CPU_WriteMem(4 bytes @ 0xE000EDFC)
T4118 000:270.941 - 0.510ms returns 0 (0x00000000)
T4118 000:271.097 JLINK_GetHWStatus(...)
T4118 000:271.350 - 0.264ms returns 0
T4118 000:271.401 JLINK_GetNumBPUnits(Type = 0xFFFFFF00)
T4118 000:271.412 - 0.015ms returns 0x06
T4118 000:271.423 JLINK_GetNumBPUnits(Type = 0xF0)
T4118 000:271.431 - 0.011ms returns 0x2000
T4118 000:271.441 JLINK_GetNumWPUnits()
T4118 000:271.449 - 0.011ms returns 4
T4118 000:271.476 JLINK_GetSpeed()
T4118 000:271.484 - 0.012ms returns 2000
T4118 000:271.505 JLINK_ReadMemU32(0xE000E004, 0x1 Items)
T4118 000:271.522   CPU_ReadMem(4 bytes @ 0xE000E004)
T4118 000:272.009   Data:  02 00 00 00
T4118 000:272.028 - 0.527ms returns 1 (0x1)
T4118 000:272.043 JLINK_ReadMemU32(0xE000E004, 0x1 Items)
T4118 000:272.058   CPU_ReadMem(4 bytes @ 0xE000E004)
T4118 000:272.513   Data:  02 00 00 00
T4118 000:272.531 - 0.492ms returns 1 (0x1)
T4118 000:272.546 JLINK_WriteMemEx(0xE0001000, 0x0000001C Bytes, Flags = 0x02000004)
T4118 000:272.556   Data:  01 00 00 00 00 00 00 00 00 00 00 00 00 00 00 00 ...
T4118 000:272.575   CPU_WriteMem(28 bytes @ 0xE0001000)
T4118 000:273.241 - 0.721ms returns 0x1C
T4118 000:273.280 JLINK_HasError()
T4118 000:273.293 JLINK_ReadReg(R15 (PC))
T4118 000:273.305 - 0.016ms returns 0x08000288
T4118 000:273.316 JLINK_ReadReg(XPSR)
T4118 000:273.325 - 0.012ms returns 0x01000000
T4118 000:279.293 JLINK_SWO_Control(JLINKARM_SWO_CMD_GET_SPEED_INFO, ...)
T4118 000:279.669 - 0.387ms returns 0x00
T4118 000:279.691 JLINK_SWO_Control(JLINKARM_SWO_CMD_STOP, ...)
T4118 000:279.705 - 0.017ms returns 0x00
T4118 000:279.715 JLINK_SWO_Control(JLINKARM_SWO_CMD_START, ...)
T4118 000:280.075    -- UART
T4118 000:280.094    -- 7304347bps
T4118 000:280.608   CPU_ReadMem(4 bytes @ 0xE0042004)
T4118 000:281.373 - 1.668ms returns 0x00
T4118 000:281.396 JLINK_WriteU32_64(0xE0040010, 0x00000016)
T4118 000:281.407   Debug reg: TPIU_ACPR
T4118 000:281.435 - 0.044ms returns 0 (0x00000000)
T4118 000:281.448 JLINK_WriteU32_64(0xE00400F0, 0x00000002)
T4118 000:281.456   Debug reg: TPIU_SPPR
T4118 000:281.476 - 0.033ms returns 0 (0x00000000)
T4118 000:281.488 JLINK_WriteU32_64(0xE0040304, 0x00000000)
T4118 000:281.496   Debug reg: TPIU_FFCR
T4118 000:281.509 - 0.025ms returns 0 (0x00000000)
T4118 000:281.520 JLINK_WriteU32_64(0xE0000FB0, 0xC5ACCE55)
T4118 000:281.529   Debug reg: ITM_LOCKACCESS
T4118 000:281.543   CPU_WriteMem(4 bytes @ 0xE0000FB0)
T4118 000:281.972 - 0.465ms returns 0 (0x00000000)
T4118 000:281.999 JLINK_WriteU32_64(0xE0000E80, 0x0001000D)
T4118 000:282.009   Debug reg: ITM_TCR
T4118 000:282.027 - 0.033ms returns 0 (0x00000000)
T4118 000:282.039 JLINK_WriteU32_64(0xE0000E00, 0xFFFFFFFF)
T4118 000:282.048   Debug reg: ITM_TER
T4118 000:282.061 - 0.026ms returns 0 (0x00000000)
T4118 000:282.072 JLINK_WriteU32_64(0xE0000E40, 0x00000008)
T4118 000:282.081   Debug reg: ITM_TPR
T4118 000:282.094 - 0.025ms returns 0 (0x00000000)
T4118 000:282.105 JLINK_WriteU32_64(0xE0001000, 0x00010A1F)
T4118 000:282.113   Debug reg: DWT_CTRL
T4118 000:282.126 - 0.025ms returns 0 (0x00000000)
T4118 000:306.442 JLINK_ReadMemEx(0xE0001004, 0x4 Bytes, Flags = 0x02000000)
T4118 000:306.478   Data:  00 00 00 00
T4118 000:306.492   Debug reg: DWT_CYCCNT
T4118 000:306.503 - 0.065ms returns 4 (0x4)
T4118 000:393.699 JLINK_HasError()
T4118 000:393.727 JLINK_SetResetType(JLINKARM_CM3_RESET_TYPE_NORMAL)
T4118 000:393.737 - 0.013ms returns JLINKARM_CM3_RESET_TYPE_NORMAL
T4118 000:393.748 JLINK_Reset()
T4118 000:393.767   CPU_WriteMem(4 bytes @ 0xE0000E00)
T4118 000:393.780   CPU_WriteMem(4 bytes @ 0xE0000E40)
T4118 000:393.792   CPU_WriteMem(4 bytes @ 0xE0000E80)
T4118 000:393.804   CPU_WriteMem(4 bytes @ 0xE0001000)
T4118 000:393.815   CPU_WriteMem(4 bytes @ 0xE0040010)
T4118 000:393.827   CPU_WriteMem(4 bytes @ 0xE00400F0)
T4118 000:393.839   CPU_WriteMem(4 bytes @ 0xE0040304)
T4118 000:395.557   CPU_WriteMem(4 bytes @ 0xE000EDF0)
T4118 000:395.924   CPU_WriteMem(4 bytes @ 0xE000EDFC)
T4118 000:396.334   Reset: Halt core after reset via DEMCR.VC_CORERESET.
T4118 000:396.696   Reset: Reset device via AIRCR.SYSRESETREQ.
T4118 000:396.716   CPU_WriteMem(4 bytes @ 0xE000ED0C)
T4118 000:449.975   CPU_ReadMem(4 bytes @ 0xE000EDF0)
T4118 000:450.475   CPU_ReadMem(4 bytes @ 0xE000EDF0)
T4118 000:450.952   CPU_WriteMem(4 bytes @ 0xE000EDF0)
T4118 000:451.431   CPU_WriteMem(4 bytes @ 0xE000EDFC)
T4118 000:457.391   CPU_ReadMem(4 bytes @ 0xE000EDF0)
T4118 000:461.532   CPU_WriteMem(4 bytes @ 0xE0002000)
T4118 000:462.039   CPU_ReadMem(4 bytes @ 0xE000EDFC)
T4118 000:462.512   CPU_ReadMem(4 bytes @ 0xE0001000)
T4118 000:463.024   CPU_ReadMem(4 bytes @ 0xE0042004)
T4118 000:463.509 - 69.771ms
T4118 000:463.539 JLINK_WriteU32_64(0xE000EDFC, 0x01000000)
T4118 000:463.549   Debug reg: DEMCR
T4118 000:463.571   CPU_WriteMem(4 bytes @ 0xE000EDFC)
T4118 000:464.058 - 0.530ms returns 0 (0x00000000)
T4118 000:464.359 JLINK_HasError()
T4118 000:464.380 JLINK_ReadReg(R15 (PC))
T4118 000:464.392 - 0.017ms returns 0x08000288
T4118 000:464.404 JLINK_ReadReg(XPSR)
T4118 000:464.413 - 0.013ms returns 0x01000000
T4118 000:469.454 JLINK_ReadMemEx(0x08000288, 0x3C Bytes, Flags = 0x02000000)
T4118 000:469.497   CPU_ReadMem(128 bytes @ 0x08000280)
T4118 000:470.891    -- Updating C cache (128 bytes @ 0x08000280)
T4118 000:470.912    -- Read from C cache (60 bytes @ 0x08000288)
T4118 000:470.926   Data:  09 48 80 47 09 48 00 47 FE E7 FE E7 FE E7 FE E7 ...
T4118 000:470.937 - 1.487ms returns 60 (0x3C)
T4118 000:470.958 JLINK_ReadMemEx(0x08000288, 0x2 Bytes, Flags = 0x02000000)
T4118 000:470.970    -- Read from C cache (2 bytes @ 0x08000288)
T4118 000:471.000   Data:  09 48
T4118 000:471.012 - 0.058ms returns 2 (0x2)
T4118 000:471.363 JLINK_ReadMemEx(0x0800028A, 0x2 Bytes, Flags = 0x02000000)
T4118 000:471.383    -- Read from C cache (2 bytes @ 0x0800028A)
T4118 000:471.395   Data:  80 47
T4118 000:471.407 - 0.047ms returns 2 (0x2)
T4118 000:471.918 JLINK_ReadMemEx(0x0800028A, 0x2 Bytes, Flags = 0x02000000)
T4118 000:471.930    -- Read from C cache (2 bytes @ 0x0800028A)
T4118 000:471.941   Data:  80 47
T4118 000:471.953 - 0.038ms returns 2 (0x2)
T4118 000:471.964 JLINK_ReadMemEx(0x0800028C, 0x3C Bytes, Flags = 0x02000000)
T4118 000:471.973    -- Read from C cache (60 bytes @ 0x0800028C)
T4118 000:471.985   Data:  09 48 00 47 FE E7 FE E7 FE E7 FE E7 FE E7 FE E7 ...
T4118 000:471.996 - 0.035ms returns 60 (0x3C)
T4118 000:472.006 JLINK_ReadMemEx(0x0800028C, 0x2 Bytes, Flags = 0x02000000)
T4118 000:472.077    -- Read from C cache (2 bytes @ 0x0800028C)
T4118 000:472.092   Data:  09 48
T4118 000:472.103 - 0.101ms returns 2 (0x2)
T4118 000:472.124 JLINK_ReadMemEx(0x0800028C, 0x3C Bytes, Flags = 0x02000000)
T4118 000:472.133    -- Read from C cache (60 bytes @ 0x0800028C)
T4118 000:472.145   Data:  09 48 00 47 FE E7 FE E7 FE E7 FE E7 FE E7 FE E7 ...
T4118 000:472.156 - 0.036ms returns 60 (0x3C)
T4118 000:472.167 JLINK_ReadMemEx(0x0800028C, 0x2 Bytes, Flags = 0x02000000)
T4118 000:472.175    -- Read from C cache (2 bytes @ 0x0800028C)
T4118 000:472.186   Data:  09 48
T4118 000:472.197 - 0.034ms returns 2 (0x2)
T4118 000:472.208 JLINK_ReadMemEx(0x0800028E, 0x2 Bytes, Flags = 0x02000000)
T4118 000:472.217    -- Read from C cache (2 bytes @ 0x0800028E)
T4118 000:472.228   Data:  00 47
T4118 000:472.239 - 0.034ms returns 2 (0x2)
T4118 000:472.255 JLINK_ReadMemEx(0x0800028E, 0x2 Bytes, Flags = 0x02000000)
T4118 000:472.264    -- Read from C cache (2 bytes @ 0x0800028E)
T4118 000:472.275   Data:  00 47
T4118 000:472.286 - 0.035ms returns 2 (0x2)
T4118 000:472.297 JLINK_ReadMemEx(0x08000290, 0x3C Bytes, Flags = 0x02000000)
T4118 000:472.306    -- Read from C cache (60 bytes @ 0x08000290)
T4118 000:472.318   Data:  FE E7 FE E7 FE E7 FE E7 FE E7 FE E7 FE E7 FE E7 ...
T4118 000:472.333 - 0.040ms returns 60 (0x3C)
T4118 000:472.344 JLINK_ReadMemEx(0x08000290, 0x2 Bytes, Flags = 0x02000000)
T4118 000:472.353    -- Read from C cache (2 bytes @ 0x08000290)
T4118 000:472.364   Data:  FE E7
T4118 000:472.375 - 0.034ms returns 2 (0x2)
T4118 000:472.397 JLINK_ReadMemEx(0x08000290, 0x3C Bytes, Flags = 0x02000000)
T4118 000:472.407    -- Read from C cache (60 bytes @ 0x08000290)
T4118 000:472.419   Data:  FE E7 FE E7 FE E7 FE E7 FE E7 FE E7 FE E7 FE E7 ...
T4118 000:472.430 - 0.036ms returns 60 (0x3C)
T4118 000:472.440 JLINK_ReadMemEx(0x08000290, 0x2 Bytes, Flags = 0x02000000)
T4118 000:472.449    -- Read from C cache (2 bytes @ 0x08000290)
T4118 000:472.460   Data:  FE E7
T4118 000:472.471 - 0.034ms returns 2 (0x2)
T4118 000:472.485 JLINK_ReadMemEx(0x08000292, 0x2 Bytes, Flags = 0x02000000)
T4118 000:472.494    -- Read from C cache (2 bytes @ 0x08000292)
T4118 000:472.505   Data:  FE E7
T4118 000:472.516 - 0.035ms returns 2 (0x2)
T4118 000:472.869 JLINK_ReadMemEx(0x08000292, 0x2 Bytes, Flags = 0x02000000)
T4118 000:472.888    -- Read from C cache (2 bytes @ 0x08000292)
T4118 000:472.901   Data:  FE E7
T4118 000:472.912 - 0.047ms returns 2 (0x2)
T4118 000:472.925 JLINK_ReadMemEx(0x08000294, 0x3C Bytes, Flags = 0x02000000)
T4118 000:472.934    -- Read from C cache (60 bytes @ 0x08000294)
T4118 000:472.946   Data:  FE E7 FE E7 FE E7 FE E7 FE E7 FE E7 FE E7 FE E7 ...
T4118 000:472.957 - 0.036ms returns 60 (0x3C)
T4118 000:472.968 JLINK_ReadMemEx(0x08000294, 0x2 Bytes, Flags = 0x02000000)
T4118 000:472.977    -- Read from C cache (2 bytes @ 0x08000294)
T4118 000:472.988   Data:  FE E7
T4118 000:472.999 - 0.034ms returns 2 (0x2)
T4118 000:473.024 JLINK_ReadMemEx(0x08000294, 0x3C Bytes, Flags = 0x02000000)
T4118 000:473.033    -- Read from C cache (60 bytes @ 0x08000294)
T4118 000:473.045   Data:  FE E7 FE E7 FE E7 FE E7 FE E7 FE E7 FE E7 FE E7 ...
T4118 000:473.056 - 0.036ms returns 60 (0x3C)
T4118 000:473.067 JLINK_ReadMemEx(0x08000294, 0x2 Bytes, Flags = 0x02000000)
T4118 000:473.076    -- Read from C cache (2 bytes @ 0x08000294)
T4118 000:473.087   Data:  FE E7
T4118 000:473.098 - 0.034ms returns 2 (0x2)
T4118 000:473.108 JLINK_ReadMemEx(0x08000296, 0x2 Bytes, Flags = 0x02000000)
T4118 000:473.117    -- Read from C cache (2 bytes @ 0x08000296)
T4118 000:473.128   Data:  FE E7
T4118 000:473.139 - 0.034ms returns 2 (0x2)
T4118 000:473.155 JLINK_ReadMemEx(0x08000296, 0x2 Bytes, Flags = 0x02000000)
T4118 000:473.165    -- Read from C cache (2 bytes @ 0x08000296)
T4118 000:473.176   Data:  FE E7
T4118 000:473.187 - 0.035ms returns 2 (0x2)
T4118 000:473.198 JLINK_ReadMemEx(0x08000298, 0x3C Bytes, Flags = 0x02000000)
T4118 000:473.206    -- Read from C cache (60 bytes @ 0x08000298)
T4118 000:473.223   Data:  FE E7 FE E7 FE E7 FE E7 FE E7 FE E7 04 48 05 49 ...
T4118 000:473.234 - 0.039ms returns 60 (0x3C)
T4118 000:473.244 JLINK_ReadMemEx(0x08000298, 0x2 Bytes, Flags = 0x02000000)
T4118 000:473.253    -- Read from C cache (2 bytes @ 0x08000298)
T4118 000:473.264   Data:  FE E7
T4118 000:473.275 - 0.034ms returns 2 (0x2)
T4118 000:473.308 JLINK_ReadMemEx(0x08000298, 0x3C Bytes, Flags = 0x02000000)
T4118 000:473.319    -- Read from C cache (60 bytes @ 0x08000298)
T4118 000:473.331   Data:  FE E7 FE E7 FE E7 FE E7 FE E7 FE E7 04 48 05 49 ...
T4118 000:473.342 - 0.037ms returns 60 (0x3C)
T4118 000:473.352 JLINK_ReadMemEx(0x08000298, 0x2 Bytes, Flags = 0x02000000)
T4118 000:473.361    -- Read from C cache (2 bytes @ 0x08000298)
T4118 000:473.372   Data:  FE E7
T4118 000:473.383 - 0.034ms returns 2 (0x2)
T4118 000:473.394 JLINK_ReadMemEx(0x0800029A, 0x2 Bytes, Flags = 0x02000000)
T4118 000:473.402    -- Read from C cache (2 bytes @ 0x0800029A)
T4118 000:473.413   Data:  FE E7
T4118 000:473.424 - 0.034ms returns 2 (0x2)
T4118 000:473.440 JLINK_ReadMemEx(0x0800029A, 0x2 Bytes, Flags = 0x02000000)
T4118 000:473.449    -- Read from C cache (2 bytes @ 0x0800029A)
T4118 000:473.461   Data:  FE E7
T4118 000:473.472 - 0.035ms returns 2 (0x2)
T4118 000:473.482 JLINK_ReadMemEx(0x0800029C, 0x3C Bytes, Flags = 0x02000000)
T4118 000:473.491    -- Read from C cache (60 bytes @ 0x0800029C)
T4118 000:473.503   Data:  FE E7 FE E7 FE E7 FE E7 04 48 05 49 05 4A 06 4B ...
T4118 000:473.514 - 0.035ms returns 60 (0x3C)
T4118 000:473.524 JLINK_ReadMemEx(0x0800029C, 0x2 Bytes, Flags = 0x02000000)
T4118 000:473.533    -- Read from C cache (2 bytes @ 0x0800029C)
T4118 000:473.544   Data:  FE E7
T4118 000:473.555 - 0.034ms returns 2 (0x2)
T4118 000:473.570 JLINK_ReadMemEx(0x0800029C, 0x3C Bytes, Flags = 0x02000000)
T4118 000:473.580    -- Read from C cache (60 bytes @ 0x0800029C)
T4118 000:473.592   Data:  FE E7 FE E7 FE E7 FE E7 04 48 05 49 05 4A 06 4B ...
T4118 000:473.602 - 0.035ms returns 60 (0x3C)
T4118 000:473.613 JLINK_ReadMemEx(0x0800029C, 0x2 Bytes, Flags = 0x02000000)
T4118 000:473.621    -- Read from C cache (2 bytes @ 0x0800029C)
T4118 000:473.632   Data:  FE E7
T4118 000:473.643 - 0.034ms returns 2 (0x2)
T4118 000:473.654 JLINK_ReadMemEx(0x0800029E, 0x2 Bytes, Flags = 0x02000000)
T4118 000:473.662    -- Read from C cache (2 bytes @ 0x0800029E)
T4118 000:473.673   Data:  FE E7
T4118 000:473.684 - 0.034ms returns 2 (0x2)
T4118 000:473.701 JLINK_ReadMemEx(0x0800029E, 0x2 Bytes, Flags = 0x02000000)
T4118 000:473.710    -- Read from C cache (2 bytes @ 0x0800029E)
T4118 000:473.721   Data:  FE E7
T4118 000:473.732 - 0.035ms returns 2 (0x2)
T4118 000:473.743 JLINK_ReadMemEx(0x080002A0, 0x3C Bytes, Flags = 0x02000000)
T4118 000:473.751    -- Read from C cache (60 bytes @ 0x080002A0)
T4118 000:473.763   Data:  FE E7 FE E7 04 48 05 49 05 4A 06 4B 70 47 00 00 ...
T4118 000:473.774 - 0.035ms returns 60 (0x3C)
T4118 000:473.784 JLINK_ReadMemEx(0x080002A0, 0x2 Bytes, Flags = 0x02000000)
T4118 000:473.793    -- Read from C cache (2 bytes @ 0x080002A0)
T4118 000:473.804   Data:  FE E7
T4118 000:473.815 - 0.034ms returns 2 (0x2)
T4118 000:655.769 JLINK_WriteU32_64(0xE0001008, 0x00000000)
T4118 000:655.796   Debug reg: DWT_CPICNT
T4118 000:655.822 - 0.123ms returns 0 (0x00000000)
T4118 000:655.906 JLINK_WriteU32_64(0xE000100C, 0x00000000)
T4118 000:655.916   Debug reg: DWT_EXCCNT
T4118 000:655.956 - 0.060ms returns 0 (0x00000000)
T4118 000:655.976 JLINK_WriteU32_64(0xE0001010, 0x00000000)
T4118 000:655.986   Debug reg: DWT_SLEEPCNT
T4118 000:656.001 - 0.029ms returns 0 (0x00000000)
T4118 000:656.014 JLINK_WriteU32_64(0xE0001014, 0x00000000)
T4118 000:656.023   Debug reg: DWT_LSUCNT
T4118 000:656.093 - 0.091ms returns 0 (0x00000000)
T4118 000:656.116 JLINK_WriteU32_64(0xE0001018, 0x00000000)
T4118 000:656.126   Debug reg: DWT_FOLDCNT
T4118 000:656.141 - 0.030ms returns 0 (0x00000000)
T4118 000:716.749 JLINK_ReadMemEx(0xE000ED04, 0x4 Bytes, Flags = 0x02000000)
T4118 000:716.793   CPU_ReadMem(4 bytes @ 0xE000ED04)
T4118 000:717.227   Data:  00 00 00 00
T4118 000:717.249 - 0.505ms returns 4 (0x4)
T4118 000:717.272 JLINK_ReadMemEx(0xE000ED08, 0x4 Bytes, Flags = 0x02000000)
T4118 000:717.289   CPU_ReadMem(4 bytes @ 0xE000ED08)
T4118 000:717.705   Data:  00 00 00 00
T4118 000:717.723 - 0.454ms returns 4 (0x4)
T4118 000:717.743 JLINK_ReadMemEx(0xE000ED0C, 0x4 Bytes, Flags = 0x02000000)
T4118 000:717.759   CPU_ReadMem(4 bytes @ 0xE000ED0C)
T4118 000:718.185   Data:  00 00 05 FA
T4118 000:718.202   Debug reg: AIRCR
T4118 000:718.213 - 0.473ms returns 4 (0x4)
T4118 000:718.232 JLINK_ReadMemEx(0xE000ED18, 0x4 Bytes, Flags = 0x02000000)
T4118 000:718.246   CPU_ReadMem(4 bytes @ 0xE000ED18)
T4118 000:718.685   Data:  00 00 00 00
T4118 000:718.701 - 0.473ms returns 4 (0x4)
T4118 000:718.720 JLINK_ReadMemEx(0xE000ED1C, 0x4 Bytes, Flags = 0x02000000)
T4118 000:718.735   CPU_ReadMem(4 bytes @ 0xE000ED1C)
T4118 000:719.119   Data:  00 00 00 00
T4118 000:719.136 - 0.419ms returns 4 (0x4)
T4118 000:719.155 JLINK_ReadMemEx(0xE000ED20, 0x4 Bytes, Flags = 0x02000000)
T4118 000:719.169   CPU_ReadMem(4 bytes @ 0xE000ED20)
T4118 000:719.564   Data:  00 00 00 00
T4118 000:719.581 - 0.429ms returns 4 (0x4)
T4118 000:719.599 JLINK_ReadMemEx(0xE000ED24, 0x4 Bytes, Flags = 0x02000000)
T4118 000:719.614   CPU_ReadMem(4 bytes @ 0xE000ED24)
T4118 000:720.087   Data:  00 00 00 00
T4118 000:720.155 - 0.560ms returns 4 (0x4)
T4118 000:720.175 JLINK_ReadMemEx(0xE000EDFC, 0x4 Bytes, Flags = 0x02000000)
T4118 000:720.191   Data:  00 00 00 01
T4118 000:720.203   Debug reg: DEMCR
T4118 000:720.214 - 0.042ms returns 4 (0x4)
T4118 000:720.239 JLINK_ReadMemEx(0xE000E100, 0x20 Bytes, Flags = 0x02000000)
T4118 000:720.253   CPU_ReadMem(32 bytes @ 0xE000E100)
T4118 000:720.856   Data:  00 00 00 00 00 00 00 00 00 00 00 00 00 00 00 00 ...
T4118 000:720.875 - 0.640ms returns 32 (0x20)
T4118 000:720.897 JLINK_ReadMemEx(0xE000E200, 0x20 Bytes, Flags = 0x02000000)
T4118 000:720.914   CPU_ReadMem(32 bytes @ 0xE000E200)
T4118 000:721.518   Data:  00 00 00 00 00 00 00 00 00 00 00 00 00 00 00 00 ...
T4118 000:721.537 - 0.644ms returns 32 (0x20)
T4118 000:721.558 JLINK_ReadMemEx(0xE000E300, 0x20 Bytes, Flags = 0x02000000)
T4118 000:721.575   CPU_ReadMem(32 bytes @ 0xE000E300)
T4118 000:722.163   Data:  00 00 00 00 00 00 00 00 00 00 00 00 00 00 00 00 ...
T4118 000:722.181 - 0.626ms returns 32 (0x20)
T4118 000:722.201 JLINK_ReadMemEx(0xE000E400, 0x100 Bytes, Flags = 0x02000000)
T4118 000:722.217   CPU_ReadMem(256 bytes @ 0xE000E400)
T4118 000:724.507   Data:  00 00 00 00 00 00 00 00 00 00 00 00 00 00 00 00 ...
T4118 000:724.542 - 2.345ms returns 256 (0x100)
T4118 000:725.327 JLINK_ReadMemEx(0xE000ED04, 0x4 Bytes, Flags = 0x02000000)
T4118 000:725.346   CPU_ReadMem(4 bytes @ 0xE000ED04)
T4118 000:725.764   Data:  00 00 00 00
T4118 000:725.781 - 0.458ms returns 4 (0x4)
T4118 000:725.796 JLINK_ReadMemEx(0xE000ED08, 0x4 Bytes, Flags = 0x02000000)
T4118 000:725.810   CPU_ReadMem(4 bytes @ 0xE000ED08)
T4118 000:726.274   Data:  00 00 00 00
T4118 000:726.291 - 0.498ms returns 4 (0x4)
T4118 000:726.309 JLINK_ReadMemEx(0xE000ED0C, 0x4 Bytes, Flags = 0x02000000)
T4118 000:726.324   CPU_ReadMem(4 bytes @ 0xE000ED0C)
T4118 000:726.737   Data:  00 00 05 FA
T4118 000:726.754   Debug reg: AIRCR
T4118 000:726.766 - 0.460ms returns 4 (0x4)
T4118 000:726.785 JLINK_ReadMemEx(0xE000ED18, 0x4 Bytes, Flags = 0x02000000)
T4118 000:726.799   CPU_ReadMem(4 bytes @ 0xE000ED18)
T4118 000:727.151   Data:  00 00 00 00
T4118 000:727.168 - 0.387ms returns 4 (0x4)
T4118 000:727.187 JLINK_ReadMemEx(0xE000ED1C, 0x4 Bytes, Flags = 0x02000000)
T4118 000:727.201   CPU_ReadMem(4 bytes @ 0xE000ED1C)
T4118 000:727.568   Data:  00 00 00 00
T4118 000:727.585 - 0.401ms returns 4 (0x4)
T4118 000:727.604 JLINK_ReadMemEx(0xE000ED20, 0x4 Bytes, Flags = 0x02000000)
T4118 000:727.618   CPU_ReadMem(4 bytes @ 0xE000ED20)
T4118 000:727.995   Data:  00 00 00 00
T4118 000:728.012 - 0.412ms returns 4 (0x4)
T4118 000:728.034 JLINK_ReadMemEx(0xE000ED24, 0x4 Bytes, Flags = 0x02000000)
T4118 000:728.052   CPU_ReadMem(4 bytes @ 0xE000ED24)
T4118 000:728.414   Data:  00 00 00 00
T4118 000:728.431 - 0.400ms returns 4 (0x4)
T4118 000:728.450 JLINK_ReadMemEx(0xE000EDFC, 0x4 Bytes, Flags = 0x02000000)
T4118 000:728.464   Data:  00 00 00 01
T4118 000:728.475   Debug reg: DEMCR
T4118 000:728.486 - 0.040ms returns 4 (0x4)
T4118 000:728.500 JLINK_ReadMemEx(0xE000E100, 0x20 Bytes, Flags = 0x02000000)
T4118 000:728.512   CPU_ReadMem(32 bytes @ 0xE000E100)
T4118 000:729.139   Data:  00 00 00 00 00 00 00 00 00 00 00 00 00 00 00 00 ...
T4118 000:729.155 - 0.658ms returns 32 (0x20)
T4118 000:729.174 JLINK_ReadMemEx(0xE000E200, 0x20 Bytes, Flags = 0x02000000)
T4118 000:729.189   CPU_ReadMem(32 bytes @ 0xE000E200)
T4118 000:729.851   Data:  00 00 00 00 00 00 00 00 00 00 00 00 00 00 00 00 ...
T4118 000:729.901 - 0.748ms returns 32 (0x20)
T4118 000:729.945 JLINK_ReadMemEx(0xE000E300, 0x20 Bytes, Flags = 0x02000000)
T4118 000:729.960   CPU_ReadMem(32 bytes @ 0xE000E300)
T4118 000:730.622   Data:  00 00 00 00 00 00 00 00 00 00 00 00 00 00 00 00 ...
T4118 000:730.671 - 0.749ms returns 32 (0x20)
T4118 000:730.710 JLINK_ReadMemEx(0xE000E400, 0x100 Bytes, Flags = 0x02000000)
T4118 000:730.724   CPU_ReadMem(256 bytes @ 0xE000E400)
T4118 000:733.076   Data:  00 00 00 00 00 00 00 00 00 00 00 00 00 00 00 00 ...
T4118 000:733.095 - 2.389ms returns 256 (0x100)
T4118 000:913.149 JLINK_ReadMemEx(0xE000ED04, 0x4 Bytes, Flags = 0x02000000)
T4118 000:913.190   CPU_ReadMem(4 bytes @ 0xE000ED04)
T4118 000:913.541   Data:  00 00 00 00
T4118 000:913.558 - 0.412ms returns 4 (0x4)
T4118 000:913.574 JLINK_ReadMemEx(0xE000ED08, 0x4 Bytes, Flags = 0x02000000)
T4118 000:913.588   CPU_ReadMem(4 bytes @ 0xE000ED08)
T4118 000:913.940   Data:  00 00 00 00
T4118 000:913.957 - 0.387ms returns 4 (0x4)
T4118 000:913.971 JLINK_ReadMemEx(0xE000ED0C, 0x4 Bytes, Flags = 0x02000000)
T4118 000:913.985   CPU_ReadMem(4 bytes @ 0xE000ED0C)
T4118 000:914.338   Data:  00 00 05 FA
T4118 000:914.371   Debug reg: AIRCR
T4118 000:914.382 - 0.415ms returns 4 (0x4)
T4118 000:914.402 JLINK_ReadMemEx(0xE000ED18, 0x4 Bytes, Flags = 0x02000000)
T4118 000:914.416   CPU_ReadMem(4 bytes @ 0xE000ED18)
T4118 000:914.781   Data:  00 00 00 00
T4118 000:914.797 - 0.399ms returns 4 (0x4)
T4118 000:914.816 JLINK_ReadMemEx(0xE000ED1C, 0x4 Bytes, Flags = 0x02000000)
T4118 000:914.831   CPU_ReadMem(4 bytes @ 0xE000ED1C)
T4118 000:915.217   Data:  00 00 00 00
T4118 000:915.233 - 0.421ms returns 4 (0x4)
T4118 000:915.252 JLINK_ReadMemEx(0xE000ED20, 0x4 Bytes, Flags = 0x02000000)
T4118 000:915.266   CPU_ReadMem(4 bytes @ 0xE000ED20)
T4118 000:915.612   Data:  00 00 00 00
T4118 000:915.629 - 0.380ms returns 4 (0x4)
T4118 000:915.648 JLINK_ReadMemEx(0xE000ED24, 0x4 Bytes, Flags = 0x02000000)
T4118 000:915.662   CPU_ReadMem(4 bytes @ 0xE000ED24)
T4118 000:916.012   Data:  00 00 00 00
T4118 000:916.034 - 0.390ms returns 4 (0x4)
T4118 000:916.055 JLINK_ReadMemEx(0xE000EDFC, 0x4 Bytes, Flags = 0x02000000)
T4118 000:916.072   Data:  00 00 00 01
T4118 000:916.085   Debug reg: DEMCR
T4118 000:916.096 - 0.044ms returns 4 (0x4)
T4118 000:916.109 JLINK_ReadMemEx(0xE000E100, 0x20 Bytes, Flags = 0x02000000)
T4118 000:916.122   CPU_ReadMem(32 bytes @ 0xE000E100)
T4118 000:916.745   Data:  00 00 00 00 00 00 00 00 00 00 00 00 00 00 00 00 ...
T4118 000:916.763 - 0.657ms returns 32 (0x20)
T4118 000:916.782 JLINK_ReadMemEx(0xE000E200, 0x20 Bytes, Flags = 0x02000000)
T4118 000:916.796   CPU_ReadMem(32 bytes @ 0xE000E200)
T4118 000:917.452   Data:  00 00 00 00 00 00 00 00 00 00 00 00 00 00 00 00 ...
T4118 000:917.470 - 0.692ms returns 32 (0x20)
T4118 000:917.491 JLINK_ReadMemEx(0xE000E300, 0x20 Bytes, Flags = 0x02000000)
T4118 000:917.509   CPU_ReadMem(32 bytes @ 0xE000E300)
T4118 000:918.111   Data:  00 00 00 00 00 00 00 00 00 00 00 00 00 00 00 00 ...
T4118 000:918.127 - 0.640ms returns 32 (0x20)
T4118 000:918.146 JLINK_ReadMemEx(0xE000E400, 0x100 Bytes, Flags = 0x02000000)
T4118 000:918.260   CPU_ReadMem(256 bytes @ 0xE000E400)
T4118 000:920.554   Data:  00 00 00 00 00 00 00 00 00 00 00 00 00 00 00 00 ...
T4118 000:920.579 - 2.437ms returns 256 (0x100)
T4118 000:925.735 JLINK_ReadMemEx(0xE000ED04, 0x4 Bytes, Flags = 0x02000000)
T4118 000:925.768   CPU_ReadMem(4 bytes @ 0xE000ED04)
T4118 000:926.144   Data:  00 00 00 00
T4118 000:926.163 - 0.432ms returns 4 (0x4)
T4118 000:926.179 JLINK_ReadMemEx(0xE000ED08, 0x4 Bytes, Flags = 0x02000000)
T4118 000:926.194   CPU_ReadMem(4 bytes @ 0xE000ED08)
T4118 000:926.586   Data:  00 00 00 00
T4118 000:926.603 - 0.428ms returns 4 (0x4)
T4118 000:926.623 JLINK_ReadMemEx(0xE000ED0C, 0x4 Bytes, Flags = 0x02000000)
T4118 000:926.637   CPU_ReadMem(4 bytes @ 0xE000ED0C)
T4118 000:927.030   Data:  00 00 05 FA
T4118 000:927.047   Debug reg: AIRCR
T4118 000:927.058 - 0.439ms returns 4 (0x4)
T4118 000:927.077 JLINK_ReadMemEx(0xE000ED18, 0x4 Bytes, Flags = 0x02000000)
T4118 000:927.091   CPU_ReadMem(4 bytes @ 0xE000ED18)
T4118 000:927.524   Data:  00 00 00 00
T4118 000:927.543 - 0.470ms returns 4 (0x4)
T4118 000:927.565 JLINK_ReadMemEx(0xE000ED1C, 0x4 Bytes, Flags = 0x02000000)
T4118 000:927.581   CPU_ReadMem(4 bytes @ 0xE000ED1C)
T4118 000:927.924   Data:  00 00 00 00
T4118 000:927.941 - 0.380ms returns 4 (0x4)
T4118 000:927.960 JLINK_ReadMemEx(0xE000ED20, 0x4 Bytes, Flags = 0x02000000)
T4118 000:927.974   CPU_ReadMem(4 bytes @ 0xE000ED20)
T4118 000:928.325   Data:  00 00 00 00
T4118 000:928.342 - 0.392ms returns 4 (0x4)
T4118 000:928.367 JLINK_ReadMemEx(0xE000ED24, 0x4 Bytes, Flags = 0x02000000)
T4118 000:928.382   CPU_ReadMem(4 bytes @ 0xE000ED24)
T4118 000:928.774   Data:  00 00 00 00
T4118 000:928.790 - 0.426ms returns 4 (0x4)
T4118 000:928.809 JLINK_ReadMemEx(0xE000EDFC, 0x4 Bytes, Flags = 0x02000000)
T4118 000:928.822   Data:  00 00 00 01
T4118 000:928.834   Debug reg: DEMCR
T4118 000:928.845 - 0.040ms returns 4 (0x4)
T4118 000:928.859 JLINK_ReadMemEx(0xE000E100, 0x20 Bytes, Flags = 0x02000000)
T4118 000:928.871   CPU_ReadMem(32 bytes @ 0xE000E100)
T4118 000:929.468   Data:  00 00 00 00 00 00 00 00 00 00 00 00 00 00 00 00 ...
T4118 000:929.485 - 0.629ms returns 32 (0x20)
T4118 000:929.504 JLINK_ReadMemEx(0xE000E200, 0x20 Bytes, Flags = 0x02000000)
T4118 000:929.518   CPU_ReadMem(32 bytes @ 0xE000E200)
T4118 000:930.195   Data:  00 00 00 00 00 00 00 00 00 00 00 00 00 00 00 00 ...
T4118 000:930.245 - 0.764ms returns 32 (0x20)
T4118 000:930.283 JLINK_ReadMemEx(0xE000E300, 0x20 Bytes, Flags = 0x02000000)
T4118 000:930.298   CPU_ReadMem(32 bytes @ 0xE000E300)
T4118 000:930.915   Data:  00 00 00 00 00 00 00 00 00 00 00 00 00 00 00 00 ...
T4118 000:930.931 - 0.651ms returns 32 (0x20)
T4118 000:930.950 JLINK_ReadMemEx(0xE000E400, 0x100 Bytes, Flags = 0x02000000)
T4118 000:930.965   CPU_ReadMem(256 bytes @ 0xE000E400)
T4118 000:933.208   Data:  00 00 00 00 00 00 00 00 00 00 00 00 00 00 00 00 ...
T4118 000:933.230 - 2.283ms returns 256 (0x100)
T4118 004:315.451 JLINK_HasError()
T4118 004:315.476 JLINK_ReadReg(R0)
T4118 004:315.826 - 0.359ms returns 0x00000000
T4118 004:315.853 JLINK_ReadReg(R1)
T4118 004:315.863 - 0.014ms returns 0x00000000
T4118 004:315.878 JLINK_ReadReg(R2)
T4118 004:315.886 - 0.012ms returns 0x00000000
T4118 004:315.900 JLINK_ReadReg(R3)
T4118 004:315.909 - 0.012ms returns 0x00000000
T4118 004:315.923 JLINK_ReadReg(R4)
T4118 004:315.931 - 0.012ms returns 0x00000000
T4118 004:315.945 JLINK_ReadReg(R5)
T4118 004:315.954 - 0.012ms returns 0x00000000
T4118 004:315.967 JLINK_ReadReg(R6)
T4118 004:315.976 - 0.012ms returns 0x00000000
T4118 004:315.990 JLINK_ReadReg(R7)
T4118 004:315.999 - 0.012ms returns 0x00000000
T4118 004:316.013 JLINK_ReadReg(R8)
T4118 004:316.029 - 0.020ms returns 0x00000000
T4118 004:316.043 JLINK_ReadReg(R9)
T4118 004:316.052 - 0.012ms returns 0x00000000
T4118 004:316.066 JLINK_ReadReg(R10)
T4118 004:316.075 - 0.012ms returns 0x00000000
T4118 004:316.089 JLINK_ReadReg(R11)
T4118 004:316.098 - 0.012ms returns 0x00000000
T4118 004:316.112 JLINK_ReadReg(R12)
T4118 004:316.128 - 0.020ms returns 0x00000000
T4118 004:316.142 JLINK_ReadReg(R13 (SP))
T4118 004:316.151 - 0.013ms returns 0x2001F400
T4118 004:316.165 JLINK_ReadReg(R14)
T4118 004:316.174 - 0.012ms returns 0xFFFFFFFF
T4118 004:316.188 JLINK_ReadReg(R15 (PC))
T4118 004:316.197 - 0.013ms returns 0x08000288
T4118 004:316.212 JLINK_ReadReg(XPSR)
T4118 004:316.220 - 0.012ms returns 0x01000000
T4118 004:316.235 JLINK_ReadReg(MSP)
T4118 004:316.243 - 0.012ms returns 0x2001F400
T4118 004:316.258 JLINK_ReadReg(PSP)
T4118 004:316.267 - 0.013ms returns 0x00000000
T4118 004:316.281 JLINK_ReadReg(CFBP)
T4118 004:316.290 - 0.012ms returns 0x00000000
T4118 004:316.304 JLINK_ReadReg(FPSCR)
T4118 004:322.062 - 5.774ms returns 0x00000000
T4118 004:322.097 JLINK_ReadReg(FPS0)
T4118 004:322.110 - 0.017ms returns 0x00000000
T4118 004:322.124 JLINK_ReadReg(FPS1)
T4118 004:322.133 - 0.012ms returns 0x00000000
T4118 004:322.146 JLINK_ReadReg(FPS2)
T4118 004:322.155 - 0.012ms returns 0x00000000
T4118 004:322.169 JLINK_ReadReg(FPS3)
T4118 004:322.177 - 0.012ms returns 0x00000000
T4118 004:322.191 JLINK_ReadReg(FPS4)
T4118 004:322.200 - 0.012ms returns 0x00000000
T4118 004:322.210 JLINK_ReadReg(FPS5)
T4118 004:322.219 - 0.012ms returns 0x00000000
T4118 004:322.229 JLINK_ReadReg(FPS6)
T4118 004:322.237 - 0.012ms returns 0x00000000
T4118 004:322.248 JLINK_ReadReg(FPS7)
T4118 004:322.256 - 0.012ms returns 0x00000000
T4118 004:322.267 JLINK_ReadReg(FPS8)
T4118 004:322.275 - 0.012ms returns 0x00000000
T4118 004:322.288 JLINK_ReadReg(FPS9)
T4118 004:322.296 - 0.012ms returns 0x00000000
T4118 004:322.311 JLINK_ReadReg(FPS10)
T4118 004:322.319 - 0.012ms returns 0x00000000
T4118 004:322.330 JLINK_ReadReg(FPS11)
T4118 004:322.338 - 0.012ms returns 0x00000000
T4118 004:322.353 JLINK_ReadReg(FPS12)
T4118 004:322.362 - 0.012ms returns 0x00000000
T4118 004:322.372 JLINK_ReadReg(FPS13)
T4118 004:322.380 - 0.012ms returns 0x00000000
T4118 004:322.391 JLINK_ReadReg(FPS14)
T4118 004:322.399 - 0.012ms returns 0x00000000
T4118 004:322.740 JLINK_ReadReg(FPS15)
T4118 004:322.757 - 0.022ms returns 0x00000000
T4118 004:322.769 JLINK_ReadReg(FPS16)
T4118 004:322.778 - 0.012ms returns 0x00000000
T4118 004:322.789 JLINK_ReadReg(FPS17)
T4118 004:322.797 - 0.012ms returns 0x00000000
T4118 004:322.807 JLINK_ReadReg(FPS18)
T4118 004:322.816 - 0.012ms returns 0x00000000
T4118 004:322.826 JLINK_ReadReg(FPS19)
T4118 004:322.834 - 0.012ms returns 0x00000000
T4118 004:322.845 JLINK_ReadReg(FPS20)
T4118 004:322.853 - 0.012ms returns 0x00000000
T4118 004:322.864 JLINK_ReadReg(FPS21)
T4118 004:322.872 - 0.012ms returns 0x00000000
T4118 004:322.882 JLINK_ReadReg(FPS22)
T4118 004:322.891 - 0.012ms returns 0x00000000
T4118 004:322.901 JLINK_ReadReg(FPS23)
T4118 004:322.909 - 0.012ms returns 0x00000000
T4118 004:322.920 JLINK_ReadReg(FPS24)
T4118 004:322.928 - 0.012ms returns 0x00000000
T4118 004:322.939 JLINK_ReadReg(FPS25)
T4118 004:322.947 - 0.012ms returns 0x00000000
T4118 004:322.958 JLINK_ReadReg(FPS26)
T4118 004:322.966 - 0.012ms returns 0x00000000
T4118 004:322.976 JLINK_ReadReg(FPS27)
T4118 004:322.985 - 0.012ms returns 0x00000000
T4118 004:322.995 JLINK_ReadReg(FPS28)
T4118 004:323.003 - 0.012ms returns 0x00000000
T4118 004:323.014 JLINK_ReadReg(FPS29)
T4118 004:323.022 - 0.012ms returns 0x00000000
T4118 004:323.032 JLINK_ReadReg(FPS30)
T4118 004:323.041 - 0.012ms returns 0x00000000
T4118 004:323.051 JLINK_ReadReg(FPS31)
T4118 004:323.059 - 0.012ms returns 0x00000000
T4118 004:373.804 JLINK_ReadMemEx(0x2000003C, 0x4 Bytes, Flags = 0x02000000)
T4118 004:373.841   CPU_ReadMem(64 bytes @ 0x20000000)
T4118 004:374.839    -- Updating C cache (64 bytes @ 0x20000000)
T4118 004:374.857    -- Read from C cache (4 bytes @ 0x2000003C)
T4118 004:374.869   Data:  10 34 00 08
T4118 004:374.880 - 1.080ms returns 4 (0x4)
T4118 004:375.257 JLINK_ReadMemEx(0x08003410, 0x1 Bytes, Flags = 0x02000000)
T4118 004:375.277   CPU_ReadMem(64 bytes @ 0x08003400)
T4118 004:376.300    -- Updating C cache (64 bytes @ 0x08003400)
T4118 004:376.323    -- Read from C cache (1 bytes @ 0x08003410)
T4118 004:376.335   Data:  72
T4118 004:376.347 - 1.094ms returns 1 (0x1)
T4118 004:387.421 JLINK_ReadMemEx(0x2000003C, 0x4 Bytes, Flags = 0x02000000)
T4118 004:387.455    -- Read from C cache (4 bytes @ 0x2000003C)
T4118 004:387.468   Data:  10 34 00 08
T4118 004:387.480 - 0.063ms returns 4 (0x4)
T4118 004:387.493 JLINK_ReadMemEx(0x08003410, 0x1 Bytes, Flags = 0x02000000)
T4118 004:387.504    -- Read from C cache (1 bytes @ 0x08003410)
T4118 004:387.515   Data:  72
T4118 004:387.526 - 0.036ms returns 1 (0x1)
T4118 004:387.561 JLINK_ReadMemEx(0x2000003C, 0x4 Bytes, Flags = 0x02000000)
T4118 004:387.573    -- Read from C cache (4 bytes @ 0x2000003C)
T4118 004:387.584   Data:  10 34 00 08
T4118 004:387.595 - 0.038ms returns 4 (0x4)
T4118 004:387.606 JLINK_ReadMemEx(0x08003410, 0x1 Bytes, Flags = 0x02000000)
T4118 004:387.615    -- Read from C cache (1 bytes @ 0x08003410)
T4118 004:387.627   Data:  72
T4118 004:387.638 - 0.035ms returns 1 (0x1)
T0728 004:485.222 JLINK_ReadMemEx(0x08000288, 0x2 Bytes, Flags = 0x02000000)
T0728 004:485.251    -- Read from C cache (2 bytes @ 0x08000288)
T0728 004:485.263   Data:  09 48
T0728 004:485.275 - 0.057ms returns 2 (0x2)
T0728 004:485.288 JLINK_HasError()
T0728 004:485.301 JLINK_SetBPEx(Addr = 0x080117A0, Type = 0xFFFFFFF2)
T0728 004:485.321 - 0.024ms returns 0x00000001
T0728 004:485.333 JLINK_HasError()
T0728 004:485.343 JLINK_SetBPEx(Addr = 0x0801100A, Type = 0xFFFFFFF2)
T0728 004:485.352 - 0.013ms returns 0x00000002
T0728 004:485.363 JLINK_HasError()
T0728 004:485.373 JLINK_HasError()
T0728 004:485.385 JLINK_ReadMemU32(0xE0001004, 0x1 Items)
T0728 004:485.400   Data:  00 00 00 00
T0728 004:485.412   Debug reg: DWT_CYCCNT
T0728 004:485.423 - 0.042ms returns 1 (0x1)
T0728 004:485.434 JLINK_WriteU32_64(0xE0001004, 0x000003FF)
T0728 004:485.442   Debug reg: DWT_CYCCNT
T0728 004:485.458 - 0.029ms returns 0 (0x00000000)
T0728 004:485.470 JLINK_WriteU32_64(0xE0001000, 0x00410A1F)
T0728 004:485.478   Debug reg: DWT_CTRL
T0728 004:485.492 - 0.026ms returns 0 (0x00000000)
T0728 004:485.503 JLINK_WriteU32_64(0xE0000E80, 0x0001000F)
T0728 004:485.511   Debug reg: ITM_TCR
T0728 004:485.524 - 0.025ms returns 0 (0x00000000)
T0728 004:485.543 JLINK_SWO_Control(JLINKARM_SWO_CMD_GET_NUM_BYTES, ...)
T0728 004:485.552 - 0.013ms returns 0x00
T0728 004:485.563 JLINK_Go()
T0728 004:485.575   CPU_WriteMem(4 bytes @ 0xE0002000)
T0728 004:486.027   CPU_WriteMem(4 bytes @ 0xE0002000)
T0728 004:486.447   CPU_WriteMem(4 bytes @ 0xE0001000)
T0728 004:486.856   CPU_ReadMem(4 bytes @ 0xE0001000)
T0728 004:487.313   CPU_WriteMem(4 bytes @ 0xE0000E80)
T0728 004:487.333   CPU_WriteMem(4 bytes @ 0xE0001008)
T0728 004:487.345   CPU_WriteMem(4 bytes @ 0xE000100C)
T0728 004:487.357   CPU_WriteMem(4 bytes @ 0xE0001010)
T0728 004:487.369   CPU_WriteMem(4 bytes @ 0xE0001014)
T0728 004:487.380   CPU_WriteMem(4 bytes @ 0xE0001018)
T0728 004:487.392   CPU_WriteMem(4 bytes @ 0xE0002008)
T0728 004:487.403   CPU_WriteMem(4 bytes @ 0xE000200C)
T0728 004:487.415   CPU_WriteMem(4 bytes @ 0xE0002010)
T0728 004:487.427   CPU_WriteMem(4 bytes @ 0xE0002014)
T0728 004:487.438   CPU_WriteMem(4 bytes @ 0xE0002018)
T0728 004:487.450   CPU_WriteMem(4 bytes @ 0xE000201C)
T0728 004:490.306   CPU_WriteMem(4 bytes @ 0xE0001004)
T0728 004:491.260 - 5.711ms
T0728 004:491.292 JLINK_WriteU32_64(0xE0001000, 0x00010A1F)
T0728 004:491.302   Debug reg: DWT_CTRL
T0728 004:491.323   CPU is running
T0728 004:491.340   CPU_WriteMem(4 bytes @ 0xE0001000)
T0728 004:491.740 - 0.461ms returns 0 (0x00000000)
T0728 004:593.064 JLINK_SWO_Read(..., Offset = 0x00, NumBytes = 0x400000)
T0728 004:593.128   Data:  0E 0F 10 C0 CE F1 0E 0E 0F 20 C0 19 0E 00 30 C0 ...
T0728 004:593.154 - 0.098ms returns NumBytesRead = 0x660
T0728 004:593.180 JLINK_SWO_Control(JLINKARM_SWO_CMD_FLUSH, ...)
T0728 004:593.198 - 0.027ms returns 0x00
T0728 004:593.336 JLINK_HasError()
T0728 004:593.364 JLINK_IsHalted()
T0728 004:594.009 - 0.674ms returns FALSE
T0728 004:694.186 JLINK_SWO_Read(..., Offset = 0x00, NumBytes = 0x400000)
T0728 004:694.210   Data:  0E 0F 10 C0 AA A0 0A 0E 0F 20 C0 0B 0E 00 30 C0 ...
T0728 004:694.221 - 0.039ms returns NumBytesRead = 0x6A4
T0728 004:694.239 JLINK_SWO_Control(JLINKARM_SWO_CMD_FLUSH, ...)
T0728 004:694.247 - 0.013ms returns 0x00
T0728 004:694.769 JLINK_HasError()
T0728 004:694.790 JLINK_IsHalted()
T0728 004:695.268 - 0.488ms returns FALSE
T0728 004:796.148 JLINK_SWO_Read(..., Offset = 0x00, NumBytes = 0x400000)
T0728 004:796.174   Data:  0E 0F 10 C0 AA A0 0A 0E 0F 20 C0 0B 0E 00 30 C0 ...
T0728 004:796.186 - 0.042ms returns NumBytesRead = 0x6D7
T0728 004:796.203 JLINK_SWO_Control(JLINKARM_SWO_CMD_FLUSH, ...)
T0728 004:796.213 - 0.013ms returns 0x00
T0728 004:796.742 JLINK_HasError()
T0728 004:796.765 JLINK_IsHalted()
T0728 004:797.184 - 0.431ms returns FALSE
T0728 004:898.144 JLINK_SWO_Read(..., Offset = 0x00, NumBytes = 0x400000)
T0728 004:898.171   Data:  0E 0F 10 C0 AA A0 0A 0E 0F 20 C0 0B 0E 00 30 C0 ...
T0728 004:898.183 - 0.043ms returns NumBytesRead = 0x6DE
T0728 004:898.195 JLINK_SWO_Control(JLINKARM_SWO_CMD_FLUSH, ...)
T0728 004:898.204 - 0.012ms returns 0x00
T0728 004:898.258 JLINK_HasError()
T0728 004:898.271 JLINK_IsHalted()
T0728 004:898.842 - 0.582ms returns FALSE
T0728 004:999.492 JLINK_SWO_Read(..., Offset = 0x00, NumBytes = 0x400000)
T0728 004:999.519   Data:  0E 0F 10 C0 AA A0 0A 0E 0F 20 C0 0B 0E 00 30 C0 ...
T0728 004:999.531 - 0.042ms returns NumBytesRead = 0x6A4
T0728 004:999.543 JLINK_SWO_Control(JLINKARM_SWO_CMD_FLUSH, ...)
T0728 004:999.551 - 0.012ms returns 0x00
T0728 004:999.607 JLINK_HasError()
T0728 004:999.619 JLINK_HasError()
T0728 004:999.630 JLINK_ReadMemU32(0xE0001004, 0x1 Items)
T0728 004:999.652   CPU_ReadMem(4 bytes @ 0xE0001004)
T0728 005:000.235   Data:  BD 75 0D 05
T0728 005:000.254   Debug reg: DWT_CYCCNT
T0728 005:000.266 - 0.639ms returns 1 (0x1)
T4118 005:000.833 JLINK_ReadMemEx(0x2000003C, 0x4 Bytes, Flags = 0x02000000)
T4118 005:000.858   CPU_ReadMem(4 bytes @ 0x2000003C)
T4118 005:001.399   Data:  10 34 00 08
T4118 005:001.418 - 0.589ms returns 4 (0x4)
T4118 005:001.440 JLINK_ReadMemEx(0x08003410, 0x1 Bytes, Flags = 0x02000000)
T4118 005:001.454   CPU_ReadMem(1 bytes @ 0x08003410)
T4118 005:001.992   Data:  72
T4118 005:002.010 - 0.574ms returns 1 (0x1)
T4118 005:002.046 JLINK_ReadMemEx(0xE000ED04, 0x4 Bytes, Flags = 0x02000000)
T4118 005:002.063   CPU_ReadMem(4 bytes @ 0xE000ED04)
T4118 005:002.596   Data:  00 00 00 00
T4118 005:002.615 - 0.572ms returns 4 (0x4)
T4118 005:002.635 JLINK_ReadMemEx(0xE000ED08, 0x4 Bytes, Flags = 0x02000000)
T4118 005:002.652   CPU_ReadMem(4 bytes @ 0xE000ED08)
T4118 005:003.219   Data:  00 00 00 08
T4118 005:003.238 - 0.606ms returns 4 (0x4)
T4118 005:003.259 JLINK_ReadMemEx(0xE000ED0C, 0x4 Bytes, Flags = 0x02000000)
T4118 005:003.276   CPU_ReadMem(4 bytes @ 0xE000ED0C)
T4118 005:003.858   Data:  00 05 05 FA
T4118 005:003.877   Debug reg: AIRCR
T4118 005:003.888 - 0.633ms returns 4 (0x4)
T4118 005:003.909 JLINK_ReadMemEx(0xE000ED18, 0x4 Bytes, Flags = 0x02000000)
T4118 005:003.925   CPU_ReadMem(4 bytes @ 0xE000ED18)
T4118 005:004.369   Data:  00 00 00 00
T4118 005:004.387 - 0.482ms returns 4 (0x4)
T4118 005:004.408 JLINK_ReadMemEx(0xE000ED1C, 0x4 Bytes, Flags = 0x02000000)
T4118 005:004.424   CPU_ReadMem(4 bytes @ 0xE000ED1C)
T4118 005:004.986   Data:  00 00 00 00
T4118 005:005.005 - 0.601ms returns 4 (0x4)
T4118 005:005.026 JLINK_ReadMemEx(0xE000ED20, 0x4 Bytes, Flags = 0x02000000)
T4118 005:005.042   CPU_ReadMem(4 bytes @ 0xE000ED20)
T4118 005:005.570   Data:  00 00 00 C0
T4118 005:005.588 - 0.566ms returns 4 (0x4)
T4118 005:005.609 JLINK_ReadMemEx(0xE000ED24, 0x4 Bytes, Flags = 0x02000000)
T4118 005:005.625   CPU_ReadMem(4 bytes @ 0xE000ED24)
T4118 005:006.191   Data:  00 00 00 00
T4118 005:006.210 - 0.604ms returns 4 (0x4)
T4118 005:006.231 JLINK_ReadMemEx(0xE000EDFC, 0x4 Bytes, Flags = 0x02000000)
T4118 005:006.246   Data:  00 00 00 01
T4118 005:006.263   Debug reg: DEMCR
T4118 005:006.274 - 0.047ms returns 4 (0x4)
T4118 005:006.289 JLINK_ReadMemEx(0xE000E100, 0x20 Bytes, Flags = 0x02000000)
T4118 005:006.300   CPU_ReadMem(32 bytes @ 0xE000E100)
T4118 005:006.900   Data:  00 00 00 00 20 00 00 00 00 00 00 00 00 00 00 00 ...
T4118 005:006.919 - 0.634ms returns 32 (0x20)
T4118 005:006.940 JLINK_ReadMemEx(0xE000E200, 0x20 Bytes, Flags = 0x02000000)
T4118 005:006.957   CPU_ReadMem(32 bytes @ 0xE000E200)
T4118 005:007.561   Data:  00 00 00 00 00 00 00 00 00 00 00 00 00 00 00 00 ...
T4118 005:007.580 - 0.643ms returns 32 (0x20)
T4118 005:007.601 JLINK_ReadMemEx(0xE000E300, 0x20 Bytes, Flags = 0x02000000)
T4118 005:007.618   CPU_ReadMem(32 bytes @ 0xE000E300)
T4118 005:008.221   Data:  00 00 00 00 00 00 00 00 00 00 00 00 00 00 00 00 ...
T4118 005:008.248 - 0.650ms returns 32 (0x20)
T4118 005:008.270 JLINK_ReadMemEx(0xE000E400, 0x100 Bytes, Flags = 0x02000000)
T4118 005:008.286   CPU_ReadMem(256 bytes @ 0xE000E400)
T4118 005:010.594   Data:  00 00 00 00 00 00 00 00 00 00 00 00 00 00 00 00 ...
T4118 005:010.623 - 2.357ms returns 256 (0x100)
T4118 005:013.271 JLINK_ReadMemEx(0xE000ED04, 0x4 Bytes, Flags = 0x02000000)
T4118 005:013.308   CPU_ReadMem(4 bytes @ 0xE000ED04)
T4118 005:013.721   Data:  00 00 00 00
T4118 005:013.739 - 0.472ms returns 4 (0x4)
T4118 005:013.754 JLINK_ReadMemEx(0xE000ED08, 0x4 Bytes, Flags = 0x02000000)
T4118 005:013.769   CPU_ReadMem(4 bytes @ 0xE000ED08)
T4118 005:014.129   Data:  00 00 00 08
T4118 005:014.146 - 0.396ms returns 4 (0x4)
T4118 005:014.166 JLINK_ReadMemEx(0xE000ED0C, 0x4 Bytes, Flags = 0x02000000)
T4118 005:014.180   CPU_ReadMem(4 bytes @ 0xE000ED0C)
T4118 005:014.553   Data:  00 05 05 FA
